Circuit: * C:\Users\Andy\Documents\git\workshoptex\spice\Lichtschranke0v.asc

Direct Newton iteration for .op point succeeded.
Semiconductor Device Operating Points:
                        --- Diodes ---
Name:      d1
Model:      d
Id:      7.46e-14
Vd:      3.91e-02
Req:     3.63e+11
CAP:     0.00e+00

                        --- Bipolar Transistors ---
Name:       q2          q1
Model:      npn         npn
Ib:       1.94e-03    4.59e-05
Ic:      -1.12e-04    1.12e-04
Vbe:      8.08e-01    7.33e-01
Vbc:      7.91e-01    6.93e-01
Vce:      1.72e-02    3.91e-02
BetaDC:  -5.77e-02    2.43e+00
Gm:       6.91e-02    6.02e-03
Rpi:      7.01e+02    1.30e+04
Rx:       0.00e+00    0.00e+00
Ro:       1.36e+01    5.89e+02
Cbe:      0.00e+00    0.00e+00
Cbc:      0.00e+00    0.00e+00
Cjs:      0.00e+00    0.00e+00
BetaAC:   4.85e+01    7.80e+01
Cbx:      0.00e+00    0.00e+00
Ft:       0.00e+00    0.00e+00



Date: Tue May 28 10:52:15 2013
Total elapsed time: 0.055 seconds.

tnom = 27
temp = 27
method = trap
totiter = 15
traniter = 0
tranpoints = 0
accept = 0
rejected = 0
matrix size = 9
fillins = 5
solver = Normal
Matrix Compiler1: 586 Bytes object code size
Matrix Compiler2: 749 Bytes object code size

