Circuit: * C:\Users\Andy\Documents\git\workshoptex\spice\NTC.asc

Direct Newton iteration for .op point succeeded.
Semiconductor Device Operating Points:
                        --- Diodes ---
Name:      d2        d§led2      d§led1
Model:      d           d           d
Id:      5.71e-11    6.54e-11    3.19e-07
Vd:      2.24e-01    2.27e-01    4.47e-01
Req:     4.55e+08    3.97e+08    8.10e+04
CAP:     0.00e+00    0.00e+00    0.00e+00

                        --- Bipolar Transistors ---
Name:       q2          q1
Model:      npn         npn
Ib:      -8.30e-12    3.18e-09
Ic:       6.54e-11    3.19e-07
Vbe:      3.42e-01    5.66e-01
Vbc:     -9.21e+00   -8.99e+00
Vce:      9.55e+00    9.55e+00
BetaDC:  -7.87e+00    1.00e+02
Gm:       2.17e-09    1.23e-05
Rpi:      4.40e+10    8.10e+06
Rx:       0.00e+00    0.00e+00
Ro:         NaN         NaN
Cbe:      0.00e+00    0.00e+00
Cbc:      0.00e+00    0.00e+00
Cjs:      0.00e+00    0.00e+00
BetaAC:   9.56e+01    1.00e+02
Cbx:      0.00e+00    0.00e+00
Ft:       0.00e+00    0.00e+00



Date: Mon May 27 21:38:30 2013
Total elapsed time: 0.226 seconds.

tnom = 27
temp = 27
method = trap
totiter = 12
traniter = 0
tranpoints = 0
accept = 0
rejected = 0
matrix size = 10
fillins = 0
solver = Normal
Matrix Compiler1: 516 Bytes object code size
Matrix Compiler2: 788 Bytes object code size

